
**** 04/07/10 15:42:45 *********** Evaluation PSpice (Nov 1999) **************

 ac analysis of bjt


 ****     CIRCUIT DESCRIPTION


******************************************************************************



vcc 2 0 dc 15
vs 7 0 ac 0.1
q1 3 1 4 BC147B
r1 2 1 10k
r2 1 0 2.2k
rc 2 3 1.5k
re 4 0 12k
rs 7 6 500OHM
rl  5 0 10k
ce 4 0 10UF
cc 3 5 10UF
CB 1 6 10UF
.model BC147B npn((bf=100 rb=100 va=200 tf=.3ns tr=6ns)
.op
.end

**** 04/07/10 15:42:45 *********** Evaluation PSpice (Nov 1999) **************

 ac analysis of bjt


 ****     BJT MODEL PARAMETERS


******************************************************************************




               BC147B          
               NPN             
          IS  100.000000E-18 
          BF  100            
          NF    1            
         VAF  200            
          BR    1            
          NR    1            
          RB  100            
          TF  300.000000E-12 
          TR    6.000000E-09 
          CN    2.42         
           D     .87         


**** 04/07/10 15:42:45 *********** Evaluation PSpice (Nov 1999) **************

 ac analysis of bjt


 ****     SMALL SIGNAL BIAS SOLUTION       TEMPERATURE =   27.000 DEG C


******************************************************************************



 NODE   VOLTAGE     NODE   VOLTAGE     NODE   VOLTAGE     NODE   VOLTAGE


(    1)    2.7021  (    2)   15.0000  (    3)   14.7550  (    4)    1.9762      

(    5)    0.0000  (    6)    0.0000  (    7)    0.0000  




    VOLTAGE SOURCE CURRENTS
    NAME         CURRENT

    vcc         -1.393E-03
    vs           0.000E+00

    TOTAL POWER DISSIPATION   2.09E-02  WATTS


**** 04/07/10 15:42:45 *********** Evaluation PSpice (Nov 1999) **************

 ac analysis of bjt


 ****     OPERATING POINT INFORMATION      TEMPERATURE =   27.000 DEG C


******************************************************************************






**** BIPOLAR JUNCTION TRANSISTORS


NAME         q1        
MODEL        BC147B    
IB           1.54E-06 
IC           1.63E-04 
VBE          7.26E-01 
VBC         -1.21E+01 
VCE          1.28E+01 
BETADC       1.06E+02 
GM           6.31E-03 
RPI          1.68E+04 
RX           1.00E+02 
RO           1.30E+06 
CBE          1.89E-12 
CBC          6.00E-21 
CJS          0.00E+00 
BETAAC       1.06E+02 
CBX/CBX2     0.00E+00 
FT/FT2       5.30E+08 



          JOB CONCLUDED

          TOTAL JOB TIME             .02
